Circuit: ** full circuit **

Early termination of direct N-R iteration.
Direct Newton iteration failed to find .op point.  (Use ".option noopiter" to skip.)
Starting Gmin stepping
Increasing initial diagonal Gmin to 100
Gmin = 100
vernier = 0.5
Gmin = 16.7772
vernier = 0.25
vernier = 0.125
vernier = 0.0625
vernier = 0.03125
Gmin = 14.6836
vernier = 0.015625
vernier = 0.0078125
vernier = 0.00390625
vernier = 0.00195313
Gmin = 14.5131
vernier = 0.000976563
vernier = 0.000488281
Gmin = 0
Gmin stepping failed

Starting source stepping with srcstepmethod=0
Source Step = 3.0303%
Source Step = 33.3333%
Source Step = 63.6364%
Source Step = 93.9394%
Source stepping succeeded in finding the operating point.

Semiconductor Device Operating Points:
                        --- Diodes ---
Name:    d:u5:n2     d:u5:n1     d:u5:q2     d:u5:q1     d:u5:p
Model:    u5:dy       u5:dy       u5:dx       u5:dx       u5:dx
Id:      1.94e-06    1.94e-06   -6.31e-13    3.06e-05   -1.30e-11
Vd:      6.00e-01    6.00e-01   -6.30e-01    6.30e-01   -1.30e+01
Req:     1.33e+04    1.33e+04    1.00e+12    8.44e+02    1.00e+12
CAP:     0.00e+00    0.00e+00    0.00e+00    0.00e+00    0.00e+00

Name:    d:u5:ln     d:u5:lp     d:u5:e      d:u5:c      d:u4:n2
Model:    u5:dx       u5:dx       u5:dx       u5:dx       u4:dy
Id:     -1.00e-11   -9.97e-12   -1.12e-12   -9.93e-12    1.94e-06
Vd:     -1.00e+01   -9.97e+00   -1.12e+00   -9.93e+00    6.00e-01
Req:     1.00e+12    1.00e+12    1.00e+12    1.00e+12    1.33e+04
CAP:     0.00e+00    0.00e+00    0.00e+00    0.00e+00    0.00e+00

Name:    d:u4:n1     d:u4:q2     d:u4:q1     d:u4:p      d:u4:ln
Model:    u4:dy       u4:dx       u4:dx       u4:dx       u4:dx
Id:      1.94e-06   -6.38e-13    3.99e-05   -1.30e-11   -1.00e-11
Vd:      6.00e-01   -6.37e-01    6.37e-01   -1.30e+01   -1.00e+01
Req:     1.33e+04    1.00e+12    6.48e+02    1.00e+12    1.00e+12
CAP:     0.00e+00    0.00e+00    0.00e+00    0.00e+00    0.00e+00

Name:    d:u4:lp     d:u4:e      d:u4:c      d:u3:n2     d:u3:n1
Model:    u4:dx       u4:dx       u4:dx       u3:dy       u3:dy
Id:     -9.96e-12   -1.35e-12   -9.70e-12    1.94e-06    1.94e-06
Vd:     -9.96e+00   -1.35e+00   -9.70e+00    6.00e-01    6.00e-01
Req:     1.00e+12    1.00e+12    1.00e+12    1.33e+04    1.33e+04
CAP:     0.00e+00    0.00e+00    0.00e+00    0.00e+00    0.00e+00

Name:    d:u3:q2     d:u3:q1     d:u3:p      d:u3:ln     d:u3:lp
Model:    u3:dx       u3:dx       u3:dx       u3:dx       u3:dx
Id:     -6.31e-13    3.06e-05   -1.30e-11   -1.00e-11   -9.97e-12
Vd:     -6.30e-01    6.30e-01   -1.30e+01   -1.00e+01   -9.97e+00
Req:     1.00e+12    8.44e+02    1.00e+12    1.00e+12    1.00e+12
CAP:     0.00e+00    0.00e+00    0.00e+00    0.00e+00    0.00e+00

Name:    d:u3:e      d:u3:c      d:u8:n2     d:u8:n1     d:u8:q2
Model:    u3:dx       u3:dx       u8:dy       u8:dy       u8:dx
Id:     -1.12e-12   -9.93e-12    1.94e-06    1.94e-06   -6.52e-13
Vd:     -1.12e+00   -9.93e+00    6.00e-01    6.00e-01   -6.51e-01
Req:     1.00e+12    1.00e+12    1.33e+04    1.33e+04    1.00e+12
CAP:     0.00e+00    0.00e+00    0.00e+00    0.00e+00    0.00e+00

Name:    d:u8:q1     d:u8:p      d:u8:ln     d:u8:lp     d:u8:e
Model:    u8:dx       u8:dx       u8:dx       u8:dx       u8:dx
Id:      6.80e-05   -1.30e-11   -1.01e-11   -9.93e-12   -3.75e-12
Vd:      6.51e-01   -1.30e+01   -1.01e+01   -9.93e+00   -3.75e+00
Req:     3.80e+02    1.00e+12    1.00e+12    1.00e+12    1.00e+12
CAP:     0.00e+00    0.00e+00    0.00e+00    0.00e+00    0.00e+00

Name:    d:u8:c      d:u7:n2     d:u7:n1     d:u7:q2     d:u7:q1
Model:    u8:dx       u7:dy       u7:dy       u7:dx       u7:dx
Id:     -7.30e-12    1.94e-06    1.94e-06   -6.52e-13    6.80e-05
Vd:     -7.30e+00    6.00e-01    6.00e-01   -6.51e-01    6.51e-01
Req:     1.00e+12    1.33e+04    1.33e+04    1.00e+12    3.80e+02
CAP:     0.00e+00    0.00e+00    0.00e+00    0.00e+00    0.00e+00

Name:    d:u7:p      d:u7:ln     d:u7:lp     d:u7:e      d:u7:c
Model:    u7:dx       u7:dx       u7:dx       u7:dx       u7:dx
Id:     -1.30e-11   -1.01e-11   -9.93e-12   -3.75e-12   -7.30e-12
Vd:     -1.30e+01   -1.01e+01   -9.93e+00   -3.75e+00   -7.30e+00
Req:     1.00e+12    1.00e+12    1.00e+12    1.00e+12    1.00e+12
CAP:     0.00e+00    0.00e+00    0.00e+00    0.00e+00    0.00e+00

Name:    d:u6:n2     d:u6:n1     d:u6:q2     d:u6:q1     d:u6:p
Model:    u6:dy       u6:dy       u6:dx       u6:dx       u6:dx
Id:      1.94e-06    1.94e-06   -6.52e-13    6.80e-05   -1.30e-11
Vd:      6.00e-01    6.00e-01   -6.51e-01    6.51e-01   -1.30e+01
Req:     1.33e+04    1.33e+04    1.00e+12    3.80e+02    1.00e+12
CAP:     0.00e+00    0.00e+00    0.00e+00    0.00e+00    0.00e+00

Name:    d:u6:ln     d:u6:lp     d:u6:e      d:u6:c      d:u1:n2
Model:    u6:dx       u6:dx       u6:dx       u6:dx       u1:dy
Id:     -1.01e-11   -9.93e-12   -3.75e-12   -7.30e-12    1.94e-06
Vd:     -1.01e+01   -9.93e+00   -3.75e+00   -7.30e+00    6.00e-01
Req:     1.00e+12    1.00e+12    1.00e+12    1.00e+12    1.33e+04
CAP:     0.00e+00    0.00e+00    0.00e+00    0.00e+00    0.00e+00

Name:    d:u1:n1     d:u1:q2     d:u1:q1     d:u1:p      d:u1:ln
Model:    u1:dy       u1:dx       u1:dx       u1:dx       u1:dx
Id:      1.94e-06   -6.56e-13    7.98e-05   -1.30e-11   -1.01e-11
Vd:      6.00e-01   -6.55e-01    6.55e-01   -1.30e+01   -1.01e+01
Req:     1.33e+04    1.00e+12    3.24e+02    1.00e+12    1.00e+12
CAP:     0.00e+00    0.00e+00    0.00e+00    0.00e+00    0.00e+00

Name:    d:u1:lp     d:u1:e      d:u1:c      d:q5:4      d:q5:3
Model:    u1:dx       u1:dx       u1:dx      q5:md3      q5:md2
Id:     -9.92e-12   -4.34e-12   -6.71e-12   -1.01e-10   -1.11e-10
Vd:     -9.92e+00   -4.34e+00   -6.71e+00   -5.90e-01   -5.90e-01
Req:     1.00e+12    1.00e+12    1.00e+12    1.00e+12    1.00e+12
CAP:     0.00e+00    0.00e+00    0.00e+00    0.00e+00    0.00e+00

Name:    d:q5:2      d:q5:1      d:q6:1      d:q3:4      d:q3:3
Model:   q5:md1       q5:md     q6:dn0124    q3:md3      q3:md2
Id:     -5.90e-13   -9.47e-09   -7.06e-12   -1.01e-10   -1.11e-10
Vd:     -5.90e-01   -6.06e-01   -3.99e+00   -5.90e-01   -5.90e-01
Req:     1.00e+12    9.62e+11    1.00e+12    1.00e+12    1.00e+12
CAP:     3.43e-11    1.89e-11    0.00e+00    0.00e+00    0.00e+00

Name:    d:q3:2      d:q3:1      d:q4:1      d:q7:4      d:q7:3
Model:   q3:md1       q3:md     q4:dn0124    q7:md3      q7:md2
Id:     -5.90e-13   -9.47e-09   -7.06e-12    3.74e+00    3.74e+00
Vd:     -5.90e-01   -6.06e-01   -3.99e+00    2.52e-01    2.52e-01
Req:     1.00e+12    9.62e+11    1.00e+12    2.76e-03    2.76e-03
CAP:     3.43e-11    1.89e-11    0.00e+00    0.00e+00    0.00e+00

Name:    d:q7:2      d:q7:1      d:q8:1      d:u2:4      d:u2:3
Model:   q7:md1       q7:md     q8:dn0124  u2:dopamp2  u2:dopamp2
Id:      2.52e-13   -3.21e-09   -5.09e-14   -3.05e-12   -5.58e-12
Vd:      2.52e-01   -1.61e-02   -4.39e-04   -3.05e+00   -5.58e+00
Req:     1.00e+12    6.20e+06    8.71e+09    1.00e+12    1.00e+12
CAP:     1.01e-10    2.21e-11    0.00e+00    0.00e+00    0.00e+00

Name:    d:u2:2      d:u2:1
Model: u2:dopamp1  u2:dopamp1
Id:     -5.56e-14    9.32e-14
Vd:     -1.79e-02    1.79e-02
Req:     4.07e+11    1.46e+11
CAP:     0.00e+00    0.00e+00

                        --- Bipolar Transistors ---
Name:     q:u5:2      q:u5:1      q:u4:2      q:u4:1      q:u3:2
Model:     u5:qx       u5:qx       u4:qx       u4:qx       u3:qx
Ib:      -5.07e-08   -5.06e-08   -5.07e-08   -5.06e-08   -5.07e-08
Ic:      -3.04e-06   -3.04e-06   -3.04e-06   -3.04e-06   -3.04e-06
Vbe:     -5.71e-01   -5.71e-01   -5.71e-01   -5.71e-01   -5.71e-01
Vbc:      1.72e+00    1.72e+00    1.95e+00    1.95e+00    1.72e+00
Vce:     -2.29e+00   -2.29e+00   -2.52e+00   -2.52e+00   -2.29e+00
BetaDC:   6.00e+01    6.00e+01    6.00e+01    6.00e+01    6.00e+01
Gm:       1.18e-04    1.17e-04    1.18e-04    1.17e-04    1.18e-04
Rpi:      5.10e+05    5.11e+05    5.10e+05    5.11e+05    5.10e+05
Rx:       0.00e+00    0.00e+00    0.00e+00    0.00e+00    0.00e+00
Ro:       2.55e+42    2.57e+42    2.05e+46    2.06e+46    2.55e+42
Cbe:      0.00e+00    0.00e+00    0.00e+00    0.00e+00    0.00e+00
Cbc:      0.00e+00    0.00e+00    0.00e+00    0.00e+00    0.00e+00
Cjs:      0.00e+00    0.00e+00    0.00e+00    0.00e+00    0.00e+00
BetaAC:   6.00e+01    6.00e+01    6.00e+01    6.00e+01    6.00e+01
Cbx:      0.00e+00    0.00e+00    0.00e+00    0.00e+00    0.00e+00
Ft:       0.00e+00    0.00e+00    0.00e+00    0.00e+00    0.00e+00

Name:     q:u3:1      q:u8:2      q:u8:1      q:u7:2      q:u7:1
Model:     u3:qx       u8:qx       u8:qx       u7:qx       u7:qx
Ib:      -5.06e-08   -5.03e-08   -5.02e-08   -5.03e-08   -5.02e-08
Ic:      -3.04e-06   -3.02e-06   -3.01e-06   -3.02e-06   -3.01e-06
Vbe:     -5.71e-01   -5.70e-01   -5.70e-01   -5.70e-01   -5.70e-01
Vbc:      1.72e+00    4.36e+00    4.36e+00    4.36e+00    4.36e+00
Vce:     -2.29e+00   -4.93e+00   -4.93e+00   -4.93e+00   -4.93e+00
BetaDC:   6.00e+01    6.00e+01    6.00e+01    6.00e+01    6.00e+01
Gm:       1.17e-04    1.17e-04    1.17e-04    1.17e-04    1.17e-04
Rpi:      5.11e+05    5.15e+05    5.15e+05    5.15e+05    5.15e+05
Rx:       0.00e+00    0.00e+00    0.00e+00    0.00e+00    0.00e+00
Ro:       2.57e+42    4.72e+86    4.73e+86    4.73e+86    4.74e+86
Cbe:      0.00e+00    0.00e+00    0.00e+00    0.00e+00    0.00e+00
Cbc:      0.00e+00    0.00e+00    0.00e+00    0.00e+00    0.00e+00
Cjs:      0.00e+00    0.00e+00    0.00e+00    0.00e+00    0.00e+00
BetaAC:   6.00e+01    6.00e+01    6.00e+01    6.00e+01    6.00e+01
Cbx:      0.00e+00    0.00e+00    0.00e+00    0.00e+00    0.00e+00
Ft:       0.00e+00    0.00e+00    0.00e+00    0.00e+00    0.00e+00

Name:     q:u6:2      q:u6:1      q:u1:2      q:u1:1           qq2
Model:     u6:qx       u6:qx       u1:qx       u1:qx    qbd135__bjt_npn__1
Ib:      -5.03e-08   -5.02e-08   -5.02e-08   -5.01e-08       4.78e-04
Ic:      -3.02e-06   -3.01e-06   -3.01e-06   -3.01e-06       5.86e-02
Vbe:     -5.70e-01   -5.70e-01   -5.70e-01   -5.70e-01       7.23e-01
Vbc:      4.36e+00    4.36e+00    4.95e+00    4.95e+00      -7.27e+00
Vce:     -4.93e+00   -4.93e+00   -5.52e+00   -5.52e+00       7.99e+00
BetaDC:   6.00e+01    6.00e+01    6.00e+01    6.00e+01       1.23e+02
Gm:       1.17e-04    1.17e-04    1.16e-04    1.16e-04       2.21e+00
Rpi:      5.15e+05    5.15e+05    5.16e+05    5.16e+05       5.36e+01
Rx:       0.00e+00    0.00e+00    0.00e+00    0.00e+00       5.00e-01
Ro:       4.72e+86    4.73e+86    3.86e+96    3.87e+96       3.88e+03
Cbe:      0.00e+00    0.00e+00    0.00e+00    0.00e+00       1.83e-09
Cbc:      0.00e+00    0.00e+00    0.00e+00    0.00e+00       9.63e-12
Cjs:      0.00e+00    0.00e+00    0.00e+00    0.00e+00       0.00e+00
BetaAC:   6.00e+01    6.00e+01    6.00e+01    6.00e+01       1.19e+02
Cbx:      0.00e+00    0.00e+00    0.00e+00    0.00e+00       0.00e+00
Ft:       0.00e+00    0.00e+00    0.00e+00    0.00e+00       1.91e+08

Name:     q:u2:t2     q:u2:t1          qq1
Model:  u2:qopamp2  u2:qopamp1  2n3415__bjt_npn__1
Ib:       5.89e-08    7.56e-08       2.33e-04
Ic:       7.57e-06    7.56e-06       5.90e-02
Vbe:      5.88e-01    5.89e-01       7.67e-01
Vbc:     -9.96e+00   -9.96e+00      -2.64e+00
Vce:      1.05e+01    1.05e+01       3.40e+00
BetaDC:   1.29e+02    9.99e+01       2.54e+02
Gm:       2.93e-04    2.92e-04       1.70e+00
Rpi:      4.39e+05    3.42e+05       1.14e+02
Rx:       0.00e+00    0.00e+00       1.00e+01
Ro:       7.92e+06    7.93e+06       6.77e+02
Cbe:      0.00e+00    0.00e+00       1.55e-09
Cbc:      0.00e+00    0.00e+00       3.59e-12
Cjs:      0.00e+00    0.00e+00       0.00e+00
BetaAC:   1.28e+02    9.99e+01       1.94e+02
Cbx:      0.00e+00    0.00e+00       0.00e+00
Ft:       0.00e+00    0.00e+00       1.74e+08

                        --- MOSFET Transistors ---
Name:        m:q5:1      m:q6:1      m:q3:1      m:q4:1      m:q7:1
Model:        q5:mm     q6:mn0124     q3:mm     q4:mn0124     q7:mm
Id:         -1.21e-12    7.99e-12   -1.21e-12    7.99e-12   -5.90e-02
Vgs:        -1.66e-02    0.00e+00   -1.66e-02    0.00e+00   -4.00e+00
Vds:        -6.06e-01    3.99e+00   -6.06e-01    3.99e+00   -4.54e-03
Vbs:         0.00e+00    0.00e+00    0.00e+00    0.00e+00    0.00e+00
Vth:        -8.68e-01    1.55e+00   -8.68e-01    1.55e+00   -8.68e-01
Vdsat:      -0.00e+00    0.00e+00   -0.00e+00    0.00e+00   -3.13e+00
Gm:          0.00e+00    0.00e+00    0.00e+00    0.00e+00    1.89e-02
Gds:         0.00e+00    0.00e+00    0.00e+00    0.00e+00    1.30e+01
Gmb:         0.00e+00    0.00e+00    0.00e+00    0.00e+00    0.00e+00
Cbd:         0.00e+00    1.61e-11    0.00e+00    1.61e-11    0.00e+00
Cbs:         0.00e+00    0.00e+00    0.00e+00    0.00e+00    0.00e+00
Cgsov:       1.38e-10    6.00e-15    1.38e-10    6.00e-15    1.38e-10
Cgdov:       1.16e-11    2.00e-16    1.16e-11    2.00e-16    1.16e-11
Cgbov:       0.00e+00    0.00e+00    0.00e+00    0.00e+00    0.00e+00
Cgs:         0.00e+00    0.00e+00    0.00e+00    0.00e+00    0.00e+00
Cgd:         0.00e+00    0.00e+00    0.00e+00    0.00e+00    0.00e+00
Cgb:         0.00e+00    0.00e+00    0.00e+00    0.00e+00    0.00e+00

Name:        m:q8:1        mq9        mq10
Model:      q8:mn0124    tn2501      tn2501
Id:          4.01e-05    4.76e-13    2.32e-04
Vgs:         5.00e+00   -7.67e-01    4.00e+00
Vds:         4.39e-04    2.33e-01    3.52e-04
Vbs:         0.00e+00    0.00e+00    0.00e+00
Vth:         1.55e+00    6.49e-01    6.50e-01
Vdsat:       3.45e+00    3.32e-02    3.09e+00
Gm:          1.16e-05    2.05e-19    6.86e-05
Gds:         3.71e+00    9.81e-22    4.11e+00
Gmb:         0.00e+00    6.72e-20    8.51e-06
Cbd:         3.60e-11    0.00e+00    0.00e+00
Cbs:         0.00e+00    0.00e+00    0.00e+00
Cgsov:       6.00e-15    1.48e-10    1.48e-10
Cgdov:       2.00e-16    1.87e-11    1.87e-11
Cgbov:       0.00e+00    0.00e+00    0.00e+00
Cgs:         0.00e+00    0.00e+00    2.81e-11
Cgd:         0.00e+00    0.00e+00    2.81e-11
Cgb:         0.00e+00    5.61e-11    0.00e+00



Date: Fri Sep 23 18:46:43 2022
Total elapsed time: 7.040 seconds.

tnom = 27
temp = 27
method = trap
totiter = 1838
traniter = 0
tranpoints = 0
accept = 0
rejected = 0
matrix size = 406
fillins = 2002
solver = Normal

