Title: ** full circuit **
Date: Sun Jan 29 17:44:52 2023
Plotname: DC transfer characteristic
Flags: real forward
No. Variables: 33
No. Points:           41
Offset:   0.0000000000000000e+000
Command: Linear Technology Corporation LTspice XVII
Variables:
	0	vv1	voltage
	1	V(sc1_l_vin_dig)	voltage
	2	V(sc2_l_vin_dig)	voltage
	3	V(sc3_l_vin_dig)	voltage
	4	V(1)	voltage
	5	V(15)	voltage
	6	V(2)	voltage
	7	V(vb_1k)	voltage
	8	V(vb)	voltage
	9	V(vb_100)	voltage
	10	V(sc7_l_v_in)	voltage
	11	V(6)	voltage
	12	V(sc1_l_vin_an)	voltage
	13	V(5)	voltage
	14	V(v_an_10)	voltage
	15	V(v_an_100)	voltage
	16	V(v_an_1k)	voltage
	17	V(sc4_l_v_out)	voltage
	18	V(sc5_l_v_out)	voltage
	19	V(sc6_l_v_out)	voltage
	20	V(sc7_l_v_out)	voltage
	21	V(sc8_l_v_out)	voltage
	22	V(sc9_l_v_out)	voltage
	23	V(sc10_l_v_out)	voltage
	24	Ie(Qq2)	device_current
	25	Ic(Qq1)	device_current
	26	Ib(Qq1)	device_current
	27	Ie(Qq1)	device_current
	28	I(Rrc1)	device_current
	29	I(Rrc2)	device_current
	30	I(Rrc3)	device_current
	31	I(Rrb2)	device_current
	32	I(Rrb1)	device_current
Values:
0		1.782227000000000e+000
	5.000000000000000e+000
	0.000000000000000e+000
	0.000000000000000e+000
	0.000000000000000e+000
	5.000000000000000e+000
	1.782227000000000e+000
	1.780676795459688e+000
	8.033620160675874e-001
	8.033670878615824e-001
	8.167239734435107e+000
	4.943848000000000e+000
	9.897404456550342e+000
	1.066803995203888e+001
	9.859836655800150e+000
	8.167245625617277e+000
	8.167298646273583e+000
	1.971948677198120e+000
	1.633437017808084e+000
	1.633447621734931e+000
	1.633435839594361e+000
	3.213786242641976e-001
	7.122951613552905e-001
	3.213765955846530e-001
	-1.694089649558393e-001
	1.692598504338931e-001
	9.774162236421732e-004
	-1.702372666575213e-001
	5.891183847595016e-008
	5.891182169648346e-008
	1.692596921365043e-001
	5.071793995004015e-008
	9.773147793921003e-004
1		1.783448000000000e+000
	5.000000000000000e+000
	0.000000000000000e+000
	0.000000000000000e+000
	0.000000000000000e+000
	5.000000000000000e+000
	1.783448000000000e+000
	1.781895821808898e+000
	8.034280149293763e-001
	8.034330867224448e-001
	8.165615157815617e+000
	4.943848000000000e+000
	9.897404454824450e+000
	1.066809323541044e+001
	9.859801366724016e+000
	8.165621049028148e+000
	8.165674069923723e+000
	1.971941619519821e+000
	1.633112108753535e+000
	1.633122712728234e+000
	1.633110930533739e+000
	3.214050233130386e-001
	7.127827627155838e-001
	3.214029946338652e-001
	-1.695678743376758e-001
	1.694187598167307e-001
	9.785692641616473e-004
	-1.703973290808842e-001
	5.891210810560211e-008
	5.891212531139445e-008
	1.694186208908398e-001
	5.071793068522901e-008
	9.784678068795215e-004
2		1.784669000000000e+000
	5.000000000000000e+000
	0.000000000000000e+000
	0.000000000000000e+000
	0.000000000000000e+000
	5.000000000000000e+000
	1.784669000000000e+000
	1.783114847030175e+000
	8.034939294763568e-001
	8.034990012685002e-001
	8.163991647281259e+000
	4.943848000000000e+000
	9.897404453076831e+000
	1.066814644476979e+001
	9.859766100339355e+000
	8.163997538524132e+000
	8.164050559688393e+000
	1.971934566379738e+000
	1.632787412911846e+000
	1.632798016940285e+000
	1.632786234685983e+000
	3.214313886368953e-001
	7.132703636248552e-001
	3.214293599580920e-001
	-1.697267270759712e-001
	1.695776125557232e-001
	9.797223514249266e-004
	-1.705573349071472e-001
	5.891240713395974e-008
	5.891242873090619e-008
	1.695774453058096e-001
	5.071792143374054e-008
	9.796209175538179e-004
3		1.785890000000000e+000
	5.000000000000000e+000
	0.000000000000000e+000
	0.000000000000000e+000
	0.000000000000000e+000
	5.000000000000000e+000
	1.785890000000000e+000
	1.784333871974850e+000
	8.035598204808174e-001
	8.035648922720360e-001
	8.162368425723484e+000
	4.943848000000000e+000
	9.897404451329548e+000
	1.066819963345321e+001
	9.859730840220065e+000
	8.162374316996692e+000
	8.162427338458755e+000
	1.971927514492701e+000
	1.632462774864339e+000
	1.632473378952340e+000
	1.632461596632410e+000
	3.214577445439203e-001
	7.137579644234675e-001
	3.214557158654867e-001
	-1.698855232196453e-001
	1.697364087005789e-001
	9.808754853449016e-004
	-1.707172841859244e-001
	5.891273527147689e-008
	5.891273207936365e-008
	1.697362414496581e-001
	5.071791218558275e-008
	9.807740514940326e-004
4		1.787111000000000e+000
	5.000000000000000e+000
	0.000000000000000e+000
	0.000000000000000e+000
	0.000000000000000e+000
	5.000000000000000e+000
	1.787111000000000e+000
	1.785552896366777e+000
	8.036256643663693e-001
	8.036307361566641e-001
	8.160745782148268e+000
	4.943848000000000e+000
	9.897404449582940e+000
	1.066825278075290e+001
	9.859695592632114e+000
	8.160751673451802e+000
	8.160804695181161e+000
	1.971920465111886e+000
	1.632138252411079e+000
	1.632148856552536e+000
	1.632137074173081e+000
	3.214840816037367e-001
	7.142455650009431e-001
	3.214820529256722e-001
	-1.700442628185331e-001
	1.698951483001328e-001
	9.820286658301924e-004
	-1.708771769659707e-001
	5.891303289295990e-008
	5.891303533900327e-008
	1.698949810483846e-001
	5.071790294852718e-008
	9.819272320004074e-004
5		1.788332000000000e+000
	5.000000000000000e+000
	0.000000000000000e+000
	0.000000000000000e+000
	0.000000000000000e+000
	5.000000000000000e+000
	1.788332000000000e+000
	1.786771920205382e+000
	8.036914612213552e-001
	8.036965330107271e-001
	8.159123716054856e+000
	4.943848000000000e+000
	9.897404447836994e+000
	1.066830588675067e+001
	9.859660357564724e+000
	8.159129607388705e+000
	8.159182629395286e+000
	1.971913418235132e+000
	1.631813845451909e+000
	1.631824449648812e+000
	1.631812667207850e+000
	3.215103998516781e-001
	7.147331653570532e-001
	3.215083711739843e-001
	-1.702029459211344e-001
	1.700538314035309e-001
	9.831818927928350e-004
	-1.710370132963191e-001
	5.891334043006680e-008
	5.891333849206149e-008
	1.700536641509869e-001
	5.071789371924318e-008
	9.830804589840265e-004
6		1.789553000000000e+000
	5.000000000000000e+000
	0.000000000000000e+000
	0.000000000000000e+000
	0.000000000000000e+000
	5.000000000000000e+000
	1.789553000000000e+000
	1.787990943490125e+000
	8.037572111339894e-001
	8.037622829224392e-001
	8.157502226941457e+000
	4.943848000000000e+000
	9.897404446091692e+000
	1.066835895152858e+001
	9.859625135006924e+000
	8.157508118305609e+000
	8.157561140557585e+000
	1.971906373860247e+000
	1.631489553886476e+000
	1.631500158132460e+000
	1.631488375636358e+000
	3.215366993230329e-001
	7.152207654915815e-001
	3.215346706457075e-001
	-1.703615725764661e-001
	1.702124580599485e-001
	9.843351661448657e-004
	-1.711967932261014e-001
	5.891361612775370e-008
	5.891364152077472e-008
	1.702122908065468e-001
	5.071788449884096e-008
	9.842337323561355e-004
7		1.790773999999999e+000
	5.000000000000000e+000
	0.000000000000000e+000
	0.000000000000000e+000
	0.000000000000000e+000
	5.000000000000000e+000
	1.790773999999999e+000
	1.789209966220433e+000
	8.038229141921759e-001
	8.038279859797048e-001
	8.155881314307720e+000
	4.943848000000000e+000
	9.897404444347071e+000
	1.066841197516823e+001
	9.859589924947953e+000
	8.155887205702168e+000
	8.155940228225710e+000
	1.971899331985084e+000
	1.631165377614714e+000
	1.631175981915011e+000
	1.631164199358537e+000
	3.215629800529603e-001
	7.157083654043003e-001
	3.215609513760033e-001
	-1.705201428341152e-001
	1.703710283185759e-001
	9.854884857957585e-004
	-1.713565168043814e-001
	5.891391798940049e-008
	5.891394447843368e-008
	1.703708610640232e-001
	5.071787528954097e-008
	9.853870520282568e-004
8		1.791994999999999e+000
	5.000000000000000e+000
	0.000000000000000e+000
	0.000000000000000e+000
	0.000000000000000e+000
	5.000000000000000e+000
	1.791994999999999e+000
	1.790428988395774e+000
	8.038885704835008e-001
	8.038936422701092e-001
	8.154260977655172e+000
	4.943848000000000e+000
	9.897404442603078e+000
	1.066846495775089e+001
	9.859554727376947e+000
	8.154266869079899e+000
	8.154319891901180e+000
	1.971892292607461e+000
	1.630841316536929e+000
	1.630851920896772e+000
	1.630840138274694e+000
	3.215892420764929e-001
	7.161959650949946e-001
	3.215872133999052e-001
	-1.706786567421834e-001
	1.705295422273749e-001
	9.866418516592576e-004
	-1.715161840790446e-001
	5.891424600790174e-008
	5.891424727622053e-008
	1.705293749721776e-001
	5.071786608357165e-008
	9.865404179122731e-004
9		1.793215999999999e+000
	5.000000000000000e+000
	0.000000000000000e+000
	0.000000000000000e+000
	0.000000000000000e+000
	5.000000000000000e+000
	1.793215999999999e+000
	1.791648010015568e+000
	8.039541800954829e-001
	8.039592518811721e-001
	8.152641216479800e+000
	4.943848000000000e+000
	9.897404440859759e+000
	1.066851789935788e+001
	9.859519542283008e+000
	8.152647107934795e+000
	8.152700131022087e+000
	1.971885255725205e+000
	1.630517370552317e+000
	1.630527974965364e+000
	1.630516192284031e+000
	3.216154854286403e-001
	7.166835645634343e-001
	3.216134567524195e-001
	-1.708371143501934e-001
	1.706879998364386e-001
	9.877952636465454e-004
	-1.716757951000741e-001
	5.891454228645898e-008
	5.891454994966239e-008
	1.706878325803208e-001
	5.071785689203523e-008
	9.876938299200853e-004
10		1.794436999999999e+000
	5.000000000000000e+000
	0.000000000000000e+000
	0.000000000000000e+000
	0.000000000000000e+000
	5.000000000000000e+000
	1.794436999999999e+000
	1.792867031079248e+000
	8.040197431149522e-001
	8.040248148997222e-001
	8.151022030290184e+000
	4.943848000000000e+000
	9.897404439117084e+000
	1.066857080006971e+001
	9.859484369655512e+000
	8.151027921775441e+000
	8.151080945154954e+000
	1.971878221336188e+000
	1.630193539562602e+000
	1.630204144034093e+000
	1.630192361288263e+000
	3.216417101441321e-001
	7.171711638093899e-001
	3.216396814682780e-001
	-1.709955157071403e-001
	1.708464011940099e-001
	9.889487216696580e-004
	-1.718353499156679e-001
	5.891486476983232e-008
	5.891485256981355e-008
	1.708462339365328e-001
	5.071784770049881e-008
	9.888472879642962e-004
11		1.795657999999999e+000
	5.000000000000000e+000
	0.000000000000000e+000
	0.000000000000000e+000
	0.000000000000000e+000
	5.000000000000000e+000
	1.795657999999999e+000
	1.794086051586266e+000
	8.040852596291472e-001
	8.040903314129995e-001
	8.149403418577634e+000
	4.943848000000000e+000
	9.897404437375064e+000
	1.066862365996745e+001
	9.859449209483357e+000
	8.149409310093144e+000
	8.149462333733212e+000
	1.971871189438191e+000
	1.629869823466045e+000
	1.629880427989648e+000
	1.629868645185654e+000
	3.216679162578640e-001
	7.176587628326451e-001
	3.216658875823764e-001
	-1.711538608608136e-001
	1.710047463485243e-001
	9.901022256414854e-004
	-1.719948485741766e-001
	5.891515557721050e-008
	5.891515510114687e-008
	1.710045790905722e-001
	5.071783852228507e-008
	9.900007919571186e-004
12		1.796878999999999e+000
	5.000000000000000e+000
	0.000000000000000e+000
	0.000000000000000e+000
	0.000000000000000e+000
	5.000000000000000e+000
	1.796878999999999e+000
	1.795305071536056e+000
	8.041507297243435e-001
	8.041558015072787e-001
	8.147785380851992e+000
	4.943848000000000e+000
	9.897404435633710e+000
	1.066867647913109e+001
	9.859414061756015e+000
	8.147791272397740e+000
	8.147844296324651e+000
	1.971864160029111e+000
	1.629546222164614e+000
	1.629556826745586e+000
	1.629545043878178e+000
	3.216941038043430e-001
	7.181463616329730e-001
	3.216920751292231e-001
	-1.713121498606282e-001
	1.711630353493051e-001
	9.912557754757718e-004
	-1.721542911247709e-001
	5.891547265868269e-008
	5.891545747260807e-008
	1.711628680904022e-001
	5.071782935184288e-008
	9.911543418117128e-004
13		1.798099999999999e+000
	5.000000000000000e+000
	0.000000000000000e+000
	0.000000000000000e+000
	0.000000000000000e+000
	5.000000000000000e+000
	1.798099999999999e+000
	1.796524090928032e+000
	8.042161534870242e-001
	8.042212252690432e-001
	8.146167916611477e+000
	4.943848000000000e+000
	9.897404433892984e+000
	1.066872925764092e+001
	9.859378926462521e+000
	8.146173808187452e+000
	8.146226832369598e+000
	1.971857133106750e+000
	1.629222735557960e+000
	1.629233340189976e+000
	1.629221557265475e+000
	3.217202728181652e-001
	7.186339602101376e-001
	3.217182441434107e-001
	-1.714703827551056e-001
	1.713212682448025e-001
	9.924093710845536e-004
	-1.723136776158915e-001
	5.891575812100314e-008
	5.891575975525143e-008
	1.713211009851044e-001
	5.071782018917226e-008
	9.923079374410081e-004
14		1.799320999999999e+000
	5.000000000000000e+000
	0.000000000000000e+000
	0.000000000000000e+000
	0.000000000000000e+000
	5.000000000000000e+000
	1.799320999999999e+000
	1.797743109761645e+000
	8.042815310031816e-001
	8.042866027842848e-001
	8.144551025361537e+000
	4.943848000000000e+000
	9.897404432152930e+000
	1.066878199557668e+001
	9.859343803592250e+000
	8.144556916967732e+000
	8.144609941431426e+000
	1.971850108668985e+000
	1.628899363547170e+000
	1.628909968235498e+000
	1.628898185248643e+000
	3.217464233337241e-001
	7.191215585639208e-001
	3.217443946593379e-001
	-1.716285595932516e-001
	1.714794450837776e-001
	9.935630123815750e-004
	-1.724730080961514e-001
	5.891606988939202e-008
	5.891606194907695e-008
	1.714792778230713e-001
	5.071781103205275e-008
	9.934615787584634e-004
15		1.800541999999999e+000
	5.000000000000000e+000
	0.000000000000000e+000
	0.000000000000000e+000
	0.000000000000000e+000
	5.000000000000000e+000
	1.800541999999999e+000
	1.798962128036318e+000
	8.043468623585772e-001
	8.043519341387658e-001
	8.142934706605418e+000
	4.943848000000000e+000
	9.897404430413522e+000
	1.066883469301805e+001
	9.859308693134338e+000
	8.142940598241822e+000
	8.142993622955535e+000
	1.971843086713643e+000
	1.628576106032896e+000
	1.628586710771228e+000
	1.628574927728328e+000
	3.217725553853258e-001
	7.196091566940904e-001
	3.217705267113049e-001
	-1.717866804229419e-001
	1.716375659144287e-001
	9.947166992797260e-004
	-1.726322826137256e-001
	5.891635011678887e-008
	5.891636403632106e-008
	1.716373986528920e-001
	5.071780188603548e-008
	9.946152656777406e-004
16		1.801762999999999e+000
	5.000000000000000e+000
	0.000000000000000e+000
	0.000000000000000e+000
	0.000000000000000e+000
	5.000000000000000e+000
	1.801762999999999e+000
	1.800181145751488e+000
	8.044121476388538e-001
	8.044172194181286e-001
	8.141318959845860e+000
	4.943848000000000e+000
	9.897404428674754e+000
	1.066888735004424e+001
	9.859273595078113e+000
	8.141324851512456e+000
	8.141377876502563e+000
	1.971836067238590e+000
	1.628252962915690e+000
	1.628263567709300e+000
	1.628251784605082e+000
	3.217986690072250e-001
	7.200967546004222e-001
	3.217966403335689e-001
	-1.719447452932577e-001
	1.717956307856650e-001
	9.958704316944591e-004
	-1.727915012173580e-001
	5.891665670354485e-008
	5.891666596369305e-008
	1.717954635232253e-001
	5.071779274778976e-008
	9.957689981126337e-004
17		1.802983999999999e+000
	5.000000000000000e+000
	0.000000000000000e+000
	0.000000000000000e+000
	0.000000000000000e+000
	5.000000000000000e+000
	1.802983999999999e+000
	1.801400162906561e+000
	8.044773869293286e-001
	8.044824587076904e-001
	8.139703784586187e+000
	4.943848000000000e+000
	9.897404426936650e+000
	1.066893996673473e+001
	9.859238509412679e+000
	8.139709676282971e+000
	8.139762701518004e+000
	1.971829050241650e+000
	1.627929934096216e+000
	1.627940538938814e+000
	1.627928755779572e+000
	3.218247642335497e-001
	7.205843522826789e-001
	3.218227355602589e-001
	-1.721027542526774e-001
	1.719536397458773e-001
	9.970242095378103e-004
	-1.729506639554019e-001
	5.891693181681035e-008
	5.891696783777434e-008
	1.719534724826492e-001
	5.071778361842583e-008
	9.969227759772327e-004
18		1.804204999999999e+000
	5.000000000000000e+000
	0.000000000000000e+000
	0.000000000000000e+000
	0.000000000000000e+000
	5.000000000000000e+000
	1.804204999999999e+000
	1.802619179500976e+000
	8.045425803149268e-001
	8.045476520923766e-001
	8.138089180334942e+000
	4.943848000000000e+000
	9.897404425199188e+000
	1.066899254316796e+001
	9.859203436127519e+000
	8.138095072061901e+000
	8.138148097626102e+000
	1.971822035720716e+000
	1.627607019476188e+000
	1.627617624384618e+000
	1.627605841153508e+000
	3.218508410982668e-001
	7.210719497406358e-001
	3.218488124253418e-001
	-1.722607073492702e-001
	1.721115928433825e-001
	9.981780327269398e-004
	-1.731097708761288e-001
	5.891729115958810e-008
	5.891726958751065e-008
	1.721114255792577e-001
	5.071777449794368e-008
	9.980765991860490e-004
19		1.805425999999998e+000
	5.000000000000000e+000
	0.000000000000000e+000
	0.000000000000000e+000
	0.000000000000000e+000
	5.000000000000000e+000
	1.805425999999998e+000
	1.803838195534161e+000
	8.046077278803483e-001
	8.046127996568866e-001
	8.136475146598345e+000
	4.943848000000000e+000
	9.897404423462360e+000
	1.066904507942266e+001
	9.859168375211832e+000
	8.136481038355466e+000
	8.136534064159593e+000
	1.971815023673627e+000
	1.627284218956850e+000
	1.627294823913265e+000
	1.627283040628136e+000
	3.218768996352586e-001
	7.215595469740647e-001
	3.218748709626984e-001
	-1.724186046314393e-001
	1.722694901263200e-001
	9.993319011738840e-004
	-1.732688220275104e-001
	5.891756124754011e-008
	5.891757121290198e-008
	1.722693228613487e-001
	5.071776538301265e-008
	9.992304676538129e-004
20		1.806646999999998e+000
	5.000000000000000e+000
	0.000000000000000e+000
	0.000000000000000e+000
	0.000000000000000e+000
	5.000000000000000e+000
	1.806646999999998e+000
	1.805057211005528e+000
	8.046728297102445e-001
	8.046779014858720e-001
	8.134861682879874e+000
	4.943848000000000e+000
	9.897404421726183e+000
	1.066909757557731e+001
	9.859133326654902e+000
	8.134867574667151e+000
	8.134920600737674e+000
	1.971808014098242e+000
	1.626961532438898e+000
	1.626972137448593e+000
	1.626960354104154e+000
	3.219029398783843e-001
	7.220471439827290e-001
	3.219009112061863e-001
	-1.725764461477276e-001
	1.724273316434359e-001
	1.000485814794949e-003
	-1.734278174582399e-001
	5.891785779965631e-008
	5.891787276723903e-008
	1.724271643775028e-001
	5.071775627585318e-008
	1.000384381295284e-003
21		1.807867999999998e+000
	5.000000000000000e+000
	0.000000000000000e+000
	0.000000000000000e+000
	0.000000000000000e+000
	5.000000000000000e+000
	1.807867999999998e+000
	1.806276225914493e+000
	8.047378858888701e-001
	8.047429576635879e-001
	8.133248788686839e+000
	4.943848000000000e+000
	9.897404419990645e+000
	1.066915003170986e+001
	9.859098290446083e+000
	8.133254680504255e+000
	8.133307706867637e+000
	1.971801006992430e+000
	1.626638959823797e+000
	1.626649564892064e+000
	1.626637781483026e+000
	3.219289618613432e-001
	7.225347407663957e-001
	3.219269331895101e-001
	-1.727342319459782e-001
	1.725851174426178e-001
	1.001639773503879e-003
	-1.735867572161244e-001
	5.891818079817313e-008
	5.891817416170398e-008
	1.725849501759244e-001
	5.071774717868572e-008
	1.001538340025623e-003
22		1.809088999999998e+000
	5.000000000000000e+000
	0.000000000000000e+000
	0.000000000000000e+000
	0.000000000000000e+000
	5.000000000000000e+000
	1.809088999999998e+000
	1.807495240260493e+000
	8.048028965002233e-001
	8.048079682740320e-001
	8.131636463526512e+000
	4.943848000000000e+000
	9.897404418255761e+000
	1.066920244789838e+001
	9.859063266574637e+000
	8.131642355374064e+000
	8.131695381999002e+000
	1.971794002354047e+000
	1.626316501013005e+000
	1.626327106133584e+000
	1.626315322666205e+000
	3.219549656177364e-001
	7.230223373248388e-001
	3.219529369462658e-001
	-1.728919620747774e-001
