Circuit: ** Design1 **

Direct Newton iteration for .op point succeeded.
Semiconductor Device Operating Points:
                        --- MOSFET Transistors ---
Name:           mu9
Model:     tn2501__def__1
Id:           4.33e-03
Vgs:          6.66e-01
Vds:          7.67e+00
Vbs:          0.00e+00
Vth:          6.14e-01
Vdsat:        8.10e-02
Gm:           9.83e-02
Gds:          4.71e-04
Gmb:          1.18e-02
Cbd:          0.00e+00
Cbs:          0.00e+00
Cgsov:        1.48e-10
Cgdov:        1.87e-11
Cgbov:        0.00e+00
Cgs:          3.74e-11
Cgd:          0.00e+00
Cgb:          0.00e+00



Date: Fri Sep 23 18:44:05 2022
Total elapsed time: 0.023 seconds.

tnom = 27
temp = 27
method = trap
totiter = 8
traniter = 0
tranpoints = 0
accept = 0
rejected = 0
matrix size = 7
fillins = 0
solver = Normal
Matrix Compiler1: 348 bytes object code size
Matrix Compiler2: 543 bytes object code size
